
**** 12/09/25 11:56:19 ********* PSpice 9.2 (Mar 2000) ******** ID# 0 ********

 ** Profile: "SCHEMATIC1-twostage"  [ D:\ae lab\exp-1\rc shift-SCHEMATIC1-twostage.sim ] 


 ****     CIRCUIT DESCRIPTION


******************************************************************************




** Creating circuit file "rc shift-SCHEMATIC1-twostage.sim.cir" 
** WARNING: THIS AUTOMATICALLY GENERATED FILE MAY BE OVERWRITTEN BY SUBSEQUENT SIMULATIONS

*Libraries: 
* Local Libraries :
* From [PSPICE NETLIST] section of d:\orcad\PSpice\PSpice.ini file:
.lib "nom.lib" 

*Analysis directives: 
.AC DEC 20 1 1000mega
.PROBE V(*) I(*) W(*) D(*) NOISE(*) 
.INC ".\rc shift-SCHEMATIC1.net" 



**** INCLUDING "rc shift-SCHEMATIC1.net" ****
* source RC SHIFT
Q_Q1         N01184 N02831 N01097 Q2N2222
C_C5         N01745 N01939  10u  
Q_Q2         N01745 N03161 N01777 Q2N2222
R_R1         N02831 N01484  1k  
V_V2         N01484 0 12Vdc
R_R2         N01184 N01484  1k  
R_R3         0 N02831  1k  
V_V3         N00828 0 DC 0Vdc AC 50mVac 
R_R4         0 N01097  1k  
R_R5         0 N03161  1k  
R_R6         N03161 N01484  1k  
C_C1         N00828 N02831  10u  
R_R7         N01745 N01484  1k  
C_C2         N01184 N03161  10u  
R_R8         0 N01777  1k  
C_C3         0 N01097  10u  
R_R9         0 N01939  1k  
C_C4         0 N01777  10u  

**** RESUMING "rc shift-SCHEMATIC1-twostage.sim.cir" ****
.END

**** 12/09/25 11:56:19 ********* PSpice 9.2 (Mar 2000) ******** ID# 0 ********

 ** Profile: "SCHEMATIC1-twostage"  [ D:\ae lab\exp-1\rc shift-SCHEMATIC1-twostage.sim ] 


 ****     BJT MODEL PARAMETERS


******************************************************************************




               Q2N2222         
               NPN             
          IS   14.340000E-15 
          BF  255.9          
          NF    1            
         VAF   74.03         
         IKF     .2847       
         ISE   14.340000E-15 
          NE    1.307        
          BR    6.092        
          NR    1            
          RB   10            
          RC    1            
         CJE   22.010000E-12 
         MJE     .377        
         CJC    7.306000E-12 
         MJC     .3416       
          TF  411.100000E-12 
         XTF    3            
         VTF    1.7          
         ITF     .6          
          TR   46.910000E-09 
         XTB    1.5          
          CN    2.42         
           D     .87         


**** 12/09/25 11:56:19 ********* PSpice 9.2 (Mar 2000) ******** ID# 0 ********

 ** Profile: "SCHEMATIC1-twostage"  [ D:\ae lab\exp-1\rc shift-SCHEMATIC1-twostage.sim ] 


 ****     SMALL SIGNAL BIAS SOLUTION       TEMPERATURE =   27.000 DEG C


******************************************************************************



 NODE   VOLTAGE     NODE   VOLTAGE     NODE   VOLTAGE     NODE   VOLTAGE


(N00828)    0.0000 (N01097)    5.2953 (N01184)    6.7356 (N01484)   12.0000     

(N01745)    6.7356 (N01777)    5.2953 (N01939)    0.0000 (N02831)    5.9845     

(N03161)    5.9845 




    VOLTAGE SOURCE CURRENTS
    NAME         CURRENT

    V_V2        -2.256E-02
    V_V3         0.000E+00

    TOTAL POWER DISSIPATION   2.71E-01  WATTS



          JOB CONCLUDED

          TOTAL JOB TIME             .19
